
T76A4 000:291 SEGGER J-Link V5.02f Log File (0000ms, 0262ms total)
T76A4 000:291 DLL Compiled: Oct  2 2015 20:51:34 (0000ms, 0262ms total)
T76A4 000:291 Logging started @ 2016-03-29 21:15 (0000ms, 0262ms total)
T76A4 000:291 JLINK_SetWarnOutHandler(...) (0000ms, 0262ms total)
T76A4 000:291 JLINK_OpenEx(...)
Firmware: J-Link ARM V8 compiled Nov 28 2014 13:44:46
Hardware: V8.00
S/N: 286370559
Feature(s): RDI,FlashDL,FlashBP,JFlash  returns O.K. (0265ms, 0527ms total)
T76A4 000:556 JLINK_SetErrorOutHandler(...) (0000ms, 0527ms total)
T76A4 000:556 JLINK_ExecCommand("ProjectFile = "E:\·ÉË¼¿¨¶ûµÈ\code\2016-3-29\MDK\JLinkSettings.ini"", ...)  returns 0x00 (0000ms, 0527ms total)
T76A4 000:556 JLINK_ExecCommand("Device = MK60DN512xxx10", ...)Device "MK60DN512XXX10" selected.  returns 0x00 (0001ms, 0528ms total)
T76A4 000:557 JLINK_ExecCommand("DisableConnectionTimeout", ...)  returns 0x01 (0000ms, 0528ms total)
T76A4 000:557 JLINK_GetHardwareVersion()  returns 0x13880 (0000ms, 0528ms total)
T76A4 000:557 JLINK_GetDLLVersion()  returns 50206 (0000ms, 0528ms total)
T76A4 000:557 JLINK_GetFirmwareString(...) (0000ms, 0528ms total)
T76A4 000:557 JLINK_GetDLLVersion()  returns 50206 (0000ms, 0528ms total)
T76A4 000:557 JLINK_GetCompileDateTime() (0000ms, 0528ms total)
T76A4 000:557 JLINK_GetFirmwareString(...) (0000ms, 0528ms total)
T76A4 000:557 JLINK_GetHardwareVersion()  returns 0x13880 (0000ms, 0528ms total)
T76A4 000:558 JLINK_TIF_Select(JLINKARM_TIF_SWD)  returns 0x00 (0001ms, 0529ms total)
T76A4 000:559 JLINK_SetSpeed(2000) (0000ms, 0529ms total)
T76A4 000:559 JLINK_GetId() >0x108 TIF>Found SWD-DP with ID 0x2BA01477 >0x0D TIF> >0x28 TIF> >0x0D TIF> >0x28 TIF> >0x0D TIF> >0x21 TIF> >0x0D TIF> >0x28 TIF> >0x0D TIF> >0x21 TIF> >0x0D TIF> >0x21 TIF> >0x0D TIF> >0x21 TIF> >0x0D TIF> >0x21 TIF> >0x0D TIF> >0x21 TIF> >0x0D TIF> >0x21 TIF> >0x0D TIF> >0x21 TIF> >0x0D TIF> >0x21 TIF> >0x0D TIF> >0x21 TIF> >0x0D TIF> >0x21 TIF> >0x0D TIF> >0x21 TIF> >0x0D TIF> >0x21 TIF> >0x0D TIF> >0x21 TIF> >0x0D TIF> >0x21 TIF> >0x0D TIF> >0x21 TIF> >0x0D TIF>
 >0x21 TIF> >0x0D TIF> >0x21 TIF> >0x0D TIF> >0x21 TIF> >0x0D TIF> >0x21 TIF> >0x0D TIF> >0x21 TIF> >0x0D TIF> >0x21 TIF> >0x0D TIF> >0x21 TIF> >0x0D TIF> >0x21 TIF> >0x0D TIF> >0x21 TIF> >0x0D TIF> >0x21 TIF> >0x0D TIF> >0x21 TIF> >0x0D TIF> >0x21 TIF> >0x0D TIF> >0x21 TIF> >0x0D TIF> >0x21 TIF> >0x0D TIF> >0x21 TIF> >0x0D TIF> >0x21 TIF> >0x0D TIF> >0x21 TIF> >0x0D TIF> >0x21 TIF> >0x0D TIF> >0x21 TIF> >0x0D TIF> >0x21 TIF> >0x0D TIF> >0x21 TIF> >0x0D TIF> >0x21 TIF> >0x0D TIF> >0x21 TIF> >0x0D TIF>
 >0x21 TIF> >0x0D TIF> >0x21 TIF> >0x0D TIF> >0x21 TIF> >0x0D TIF> >0x21 TIF> >0x0D TIF> >0x21 TIF> >0x0D TIF> >0x21 TIF> >0x0D TIF> >0x21 TIF> >0x0D TIF> >0x21 TIF> >0x0D TIF> >0x21 TIF> >0x0D TIF> >0x21 TIF> >0x0D TIF> >0x21 TIF> >0x0D TIF> >0x21 TIF> >0x0D TIF> >0x21 TIF> >0x0D TIF> >0x21 TIF> >0x0D TIF> >0x21 TIF> >0x0D TIF> >0x21 TIF> >0x0D TIF> >0x21 TIF> >0x0D TIF> >0x21 TIF> >0x0D TIF> >0x21 TIF> >0x0D TIF> >0x21 TIF> >0x0D TIF> >0x21 TIF> >0x0D TIF> >0x21 TIF> >0x0D TIF> >0x21 TIF> >0x0D TIF>
 >0x21 TIF> >0x0D TIF> >0x21 TIF> >0x0D TIF> >0x21 TIF> >0x0D TIF> >0x21 TIF> >0x0D TIF> >0x21 TIF> >0x0D TIF> >0x21 TIF> >0x0D TIF> >0x21 TIF> >0x0D TIF> >0x21 TIF> >0x0D TIF> >0x21 TIF> >0x0D TIF> >0x21 TIF> >0x0D TIF> >0x21 TIF> >0x0D TIF> >0x21 TIF> >0x0D TIF> >0x21 TIF> >0x0D TIF> >0x21 TIF> >0x0D TIF> >0x21 TIF> >0x0D TIF> >0x21 TIF> >0x0D TIF> >0x21 TIF> >0x0D TIF> >0x21 TIF> >0x0D TIF> >0x21 TIF> >0x0D TIF> >0x21 TIF> >0x0D TIF> >0x21 TIF> >0x0D TIF> >0x21 TIF> >0x0D TIF> >0x21 TIF> >0x0D TIF>
 >0x21 TIF> >0x0D TIF> >0x21 TIF> >0x0D TIF> >0x21 TIF> >0x0D TIF> >0x21 TIF> >0x0D TIF> >0x21 TIF> >0x0D TIF> >0x21 TIF> >0x0D TIF> >0x21 TIF> >0x0D TIF> >0x21 TIF> >0x0D TIF> >0x21 TIF> >0x0D TIF> >0x21 TIF> >0x0D TIF> >0x21 TIF> >0x0D TIF> >0x21 TIF> >0x0D TIF> >0x21 TIF> >0x0D TIF> >0x21 TIF> >0x0D TIF> >0x21 TIF> >0x0D TIF> >0x21 TIF> >0x0D TIF> >0x21 TIF> >0x0D TIF> >0x21 TIF> >0x0D TIF> >0x21 TIF> >0x0D TIF> >0x21 TIF> >0x0D TIF> >0x21 TIF> >0x0D TIF> >0x21 TIF> >0x0D TIF> >0x21 TIF> >0x0D TIF>
 >0x21 TIF> >0x0D TIF> >0x28 TIF> >0x0D TIF> >0x28 TIF> >0x0D TIF> >0x28 TIF> >0x0D TIF> >0x21 TIF> >0x0D TIF> >0x21 TIF> >0x108 TIF>Found SWD-DP with ID 0x2BA01477 >0x0D TIF> >0x21 TIF> >0x0D TIF> >0x28 TIF> >0x0D TIF> >0x28 TIF> >0x0D TIF> >0x21 TIF> >0x0D TIF> >0x28 TIF> >0x0D TIF> >0x21 TIF> >0x0D TIF> >0x21 TIF> >0x0D TIF> >0x21 TIF> >0x0D TIF> >0x21 TIF> >0x0D TIF> >0x28 TIF> >0x0D TIF> >0x28 TIF> >0x0D TIF> >0x21 TIF> >0x0D TIF> >0x28 TIF> >0x0D TIF> >0x28 TIF> >0x0D TIF> >0x28 TIF> >0x0D TIF>
 >0x21 TIF> >0x0D TIF> >0x21 TIF> >0x0D TIF> >0x28 TIF> >0x0D TIF> >0x21 TIF> >0x0D TIF> >0x21 TIF>Found Cortex-M4 r0p0, Little endian. -- CPU_ReadMem(4 bytes @ 0xE000EDF0) -- CPU_ReadMem(4 bytes @ 0xE0002000)FPUnit: 6 code (BP) slots and 2 literal slots -- CPU_ReadMem(4 bytes @ 0xE000EDFC) -- CPU_ReadMem(4 bytes @ 0xE0001000) -- CPU_WriteMem(4 bytes @ 0xE0001000) -- CPU_ReadMem(4 bytes @ 0xE000ED88) -- CPU_WriteMem(4 bytes @ 0xE000ED88) -- CPU_ReadMem(4 bytes @ 0xE000ED88)
 -- CPU_WriteMem(4 bytes @ 0xE000ED88)CoreSight components:ROMTbl 0 @ E00FF000 -- CPU_ReadMem(16 bytes @ 0xE00FF000) -- CPU_ReadMem(16 bytes @ 0xE000EFF0) -- CPU_ReadMem(16 bytes @ 0xE000EFE0)ROMTbl 0 [0]: FFF0F000, CID: B105E00D, PID: 000BB000 SCS -- CPU_ReadMem(16 bytes @ 0xE0001FF0) -- CPU_ReadMem(16 bytes @ 0xE0001FE0)ROMTbl 0 [1]: FFF02000, CID: B105E00D, PID: 003BB002 DWT -- CPU_ReadMem(16 bytes @ 0xE0002FF0) -- CPU_ReadMem(16 bytes @ 0xE0002FE0)
ROMTbl 0 [2]: FFF03000, CID: B105E00D, PID: 002BB003 FPB -- CPU_ReadMem(16 bytes @ 0xE0000FF0) -- CPU_ReadMem(16 bytes @ 0xE0000FE0)ROMTbl 0 [3]: FFF01000, CID: B105E00D, PID: 003BB001 ITM -- CPU_ReadMem(16 bytes @ 0xE00FF010) -- CPU_ReadMem(16 bytes @ 0xE0040FF0) -- CPU_ReadMem(16 bytes @ 0xE0040FE0)ROMTbl 0 [4]: FFF41000, CID: B105900D, PID: 000BB9A1 TPIU -- CPU_ReadMem(16 bytes @ 0xE0041FF0) -- CPU_ReadMem(16 bytes @ 0xE0041FE0)ROMTbl 0 [5]: FFF42000, CID: B105900D, PID: 000BB925 ETM
 -- CPU_ReadMem(16 bytes @ 0xE0042FF0) -- CPU_ReadMem(16 bytes @ 0xE0042FE0)ROMTbl 0 [6]: FFF43000, CID: B105900D, PID: 003BB907 ETB -- CPU_ReadMem(16 bytes @ 0xE0043FF0) -- CPU_ReadMem(16 bytes @ 0xE0043FE0)ROMTbl 0 [7]: FFF44000, CID: B105900D, PID: 001BB908 CSTF -- CPU_ReadMem(16 bytes @ 0xE00FF020) >0x0D TIF> >0x21 TIF>  returns 0x2BA01477 (0090ms, 0619ms total)
T76A4 000:649 JLINK_GetDeviceFamily()  returns 14 (0000ms, 0619ms total)
T76A4 000:649 JLINK_ReadMem (0xE00FFFF0, 0x0010 Bytes, ...) -- CPU is running -- CPU_ReadMem(16 bytes @ 0xE00FFFF0) - Data: 0D 00 00 00 10 00 00 00 05 00 00 00 B1 00 00 00  returns 0x00 (0001ms, 0620ms total)
T76A4 000:650 JLINK_ReadMem (0xE00FFFD0, 0x0020 Bytes, ...) -- CPU is running -- CPU_ReadMem(32 bytes @ 0xE00FFFD0) - Data: 04 00 00 00 00 00 00 00 00 00 00 00 00 00 00 00 ...  returns 0x00 (0000ms, 0620ms total)
T76A4 000:650 JLINK_ReadMem (0xE00FF000, 0x0018 Bytes, ...) -- CPU is running -- CPU_ReadMem(24 bytes @ 0xE00FF000) - Data: 03 F0 F0 FF 03 20 F0 FF 03 30 F0 FF 03 10 F0 FF ...  returns 0x00 (0001ms, 0621ms total)
T76A4 000:651 JLINK_ReadMemU32(0xE000ED00, 0x0001 Items, ...) -- CPU is running -- CPU_ReadMem(4 bytes @ 0xE000ED00) - Data: 40 C2 0F 41  returns 0x01 (0001ms, 0622ms total)
T76A4 000:652 JLINK_ReadMemU32(0xE000EF40, 0x0001 Items, ...) -- CPU is running -- CPU_ReadMem(4 bytes @ 0xE000EF40) - Data: 00 00 00 00  returns 0x01 (0000ms, 0622ms total)
T76A4 000:652 JLINK_ReadMemU32(0xE000EF44, 0x0001 Items, ...) -- CPU is running -- CPU_ReadMem(4 bytes @ 0xE000EF44) - Data: 00 00 00 00  returns 0x01 (0001ms, 0623ms total)
T76A4 000:653 JLINK_SetResetType(JLINKARM_RESET_TYPE_NORMAL)  returns JLINKARM_RESET_TYPE_NORMAL (0000ms, 0623ms total)
T76A4 000:653 JLINK_Reset() -- CPU is running -- CPU_WriteMem(4 bytes @ 0xE000EDF0) -- CPU is running -- CPU_WriteMem(4 bytes @ 0xE000EDFC) >0x35 TIF> -- CPU is running -- CPU_WriteMem(4 bytes @ 0xE000ED0C) -- CPU is running -- CPU_ReadMem(4 bytes @ 0xE000EDF0) -- CPU is running -- CPU_ReadMem(4 bytes @ 0xE000EDF0) -- CPU is running -- CPU_WriteMem(4 bytes @ 0xE000EDF0) -- CPU is running -- CPU_WriteMem(4 bytes @ 0xE000EDFC) -- CPU is running -- CPU_ReadMem(4 bytes @ 0xE000EDF0)
 -- CPU_ReadMem(2 bytes @ 0x40052000) -- CPU_ReadMem(8 bytes @ 0x20000000) -- CPU_WriteMem(8 bytes @ 0x20000000) -- CPU_ReadMem(4 bytes @ 0xE0001000) -- CPU_WriteMem(8 bytes @ 0x20000000) -- CPU_WriteMem(4 bytes @ 0xE0002000) -- CPU_ReadMem(4 bytes @ 0xE000EDFC) -- CPU_ReadMem(4 bytes @ 0xE0001000) (0027ms, 0650ms total)
T76A4 000:680 JLINK_ReadReg(R15 (PC))  returns 0x000006D0 (0000ms, 0650ms total)
T76A4 000:680 JLINK_ReadReg(XPSR)  returns 0x01000000 (0000ms, 0650ms total)
T76A4 000:680 JLINK_Halt()  returns 0x00 (0000ms, 0650ms total)
T76A4 000:680 JLINK_IsHalted()  returns TRUE (0000ms, 0650ms total)
T76A4 000:680 JLINK_ReadMemU32(0xE000EDF0, 0x0001 Items, ...) -- CPU_ReadMem(4 bytes @ 0xE000EDF0) - Data: 0B 00 03 00  returns 0x01 (0000ms, 0650ms total)
T76A4 000:680 JLINK_WriteU32(0xE000EDF0, 0xA05F0003) -- CPU_WriteMem(4 bytes @ 0xE000EDF0)  returns 0x00 (0001ms, 0651ms total)
T76A4 000:681 JLINK_WriteU32(0xE000EDFC, 0x01000000) -- CPU_WriteMem(4 bytes @ 0xE000EDFC)  returns 0x00 (0000ms, 0651ms total)
T76A4 000:682 JLINK_GetHWStatus(...)  returns 0x00 (0000ms, 0651ms total)
T76A4 000:682 JLINK_GetNumBPUnits(Type = 0xFFFFFF00)  returns 0x06 (0000ms, 0651ms total)
T76A4 000:682 JLINK_GetNumBPUnits(Type = 0xF0)  returns 0x2000 (0000ms, 0651ms total)
T76A4 000:682 JLINK_GetNumWPUnits()  returns 0x04 (0000ms, 0651ms total)
T76A4 000:683 JLINK_GetSpeed()  returns 0x7D0 (0000ms, 0651ms total)
T76A4 000:683 JLINK_ReadMemU32(0xE000E004, 0x0001 Items, ...) -- CPU_ReadMem(4 bytes @ 0xE000E004) - Data: 02 00 00 00  returns 0x01 (0000ms, 0651ms total)
T76A4 000:683 JLINK_ReadMemU32(0xE000E004, 0x0001 Items, ...) -- CPU_ReadMem(4 bytes @ 0xE000E004) - Data: 02 00 00 00  returns 0x01 (0001ms, 0652ms total)
T76A4 000:684 JLINK_WriteMem(0xE0001000, 0x001C Bytes, ...) - Data: 01 00 00 00 00 00 00 00 00 00 00 00 00 00 00 00 ... -- CPU_WriteMem(28 bytes @ 0xE0001000)  returns 0x1C (0001ms, 0653ms total)
T76A4 000:685 JLINK_ReadMem (0xE0001000, 0x001C Bytes, ...) -- CPU_ReadMem(28 bytes @ 0xE0001000) - Data: 01 00 00 40 00 00 00 00 00 00 00 00 00 00 00 00 ...  returns 0x00 (0001ms, 0654ms total)
T76A4 000:686 JLINK_ReadReg(R15 (PC))  returns 0x000006D0 (0000ms, 0654ms total)
T76A4 000:686 JLINK_ReadReg(XPSR)  returns 0x01000000 (0000ms, 0654ms total)
T76A4 000:788 JLINK_SetResetType(JLINKARM_RESET_TYPE_NORMAL)  returns JLINKARM_RESET_TYPE_NORMAL (0000ms, 0654ms total)
T76A4 000:788 JLINK_Reset() -- CPU_WriteMem(4 bytes @ 0xE000EDF0) -- CPU_WriteMem(4 bytes @ 0xE000EDFC) >0x35 TIF> -- CPU_WriteMem(4 bytes @ 0xE000ED0C) -- CPU_ReadMem(4 bytes @ 0xE000EDF0) -- CPU_ReadMem(4 bytes @ 0xE000EDF0) -- CPU_WriteMem(4 bytes @ 0xE000EDF0) -- CPU_WriteMem(4 bytes @ 0xE000EDFC) -- CPU is running -- CPU_ReadMem(4 bytes @ 0xE000EDF0) -- CPU_ReadMem(2 bytes @ 0x40052000) -- CPU_ReadMem(8 bytes @ 0x20000000) -- CPU_WriteMem(8 bytes @ 0x20000000) -- CPU_ReadMem(4 bytes @ 0xE0001000)
 -- CPU_WriteMem(8 bytes @ 0x20000000) -- CPU_WriteMem(4 bytes @ 0xE0002000) -- CPU_ReadMem(4 bytes @ 0xE000EDFC) -- CPU_ReadMem(4 bytes @ 0xE0001000) (0027ms, 0681ms total)
T76A4 000:815 JLINK_ReadReg(R15 (PC))  returns 0x000006D0 (0000ms, 0681ms total)
T76A4 000:815 JLINK_ReadReg(XPSR)  returns 0x01000000 (0000ms, 0681ms total)
T76A4 000:817 JLINK_ReadMem (0x000005D0, 0x003C Bytes, ...) -- CPU_ReadMem(128 bytes @ 0x000005C0) -- Updating C cache (128 bytes @ 0x000005C0) -- Read from C cache (60 bytes @ 0x000005D0) - Data: 02 F0 1F 03 43 BB 52 11 08 2A 25 D2 DF E8 02 F0 ...  returns 0x00 (0002ms, 0683ms total)
T76A4 000:819 JLINK_ReadMem (0x0000060C, 0x003C Bytes, ...) -- CPU_ReadMem(64 bytes @ 0x00000640) -- Updating C cache (64 bytes @ 0x00000640) -- Read from C cache (60 bytes @ 0x0000060C) - Data: 50 43 0C E0 4F F4 B7 62 50 43 08 E0 40 F6 95 02 ...  returns 0x00 (0001ms, 0684ms total)
T76A4 000:820 JLINK_ReadMem (0x00000648, 0x003C Bytes, ...) -- CPU_ReadMem(64 bytes @ 0x00000680) -- Updating C cache (64 bytes @ 0x00000680) -- Read from C cache (60 bytes @ 0x00000648) - Data: 48 43 28 E0 1B 4A 12 78 02 F0 C0 02 40 2A 11 D1 ...  returns 0x00 (0001ms, 0685ms total)
T76A4 000:821 JLINK_ReadMem (0x00000684, 0x003C Bytes, ...) -- Read from C cache (60 bytes @ 0x00000684) - Data: 80 2A 09 D1 0C 4A 12 7B 02 F0 01 02 0A B9 0C 48 ...  returns 0x00 (0000ms, 0685ms total)
T76A4 000:821 JLINK_ReadMem (0x000006CE, 0x0002 Bytes, ...) -- CPU_ReadMem(64 bytes @ 0x000006C0) -- Updating C cache (64 bytes @ 0x000006C0) -- Read from C cache (2 bytes @ 0x000006CE) - Data: 00 20  returns 0x00 (0001ms, 0686ms total)
T76A4 000:822 JLINK_ReadMem (0x000006D0, 0x003C Bytes, ...) -- CPU_ReadMem(64 bytes @ 0x00000700) -- Updating C cache (64 bytes @ 0x00000700) -- Read from C cache (60 bytes @ 0x000006D0) - Data: 09 48 80 47 09 48 00 47 FE E7 FE E7 FE E7 FE E7 ...  returns 0x00 (0002ms, 0688ms total)
T7BF4 002:929 JLINK_SetBPEx(Addr = 0x00000710, Type = 0xFFFFFFF2)  returns 0x00000001 (0000ms, 0688ms total)
T7BF4 002:929 JLINK_SetBPEx(Addr = 0x000007E0, Type = 0xFFFFFFF2)  returns 0x00000002 (0000ms, 0688ms total)
T7BF4 002:929 JLINK_SetBPEx(Addr = 0x000007EE, Type = 0xFFFFFFF2)  returns 0x00000003 (0000ms, 0688ms total)
T7BF4 002:929 JLINK_SetBPEx(Addr = 0x000007FC, Type = 0xFFFFFFF2)  returns 0x00000004 (0000ms, 0688ms total)
T7BF4 002:929 JLINK_SetBPEx(Addr = 0x00000784, Type = 0xFFFFFFF2)  returns 0x00000005 (0000ms, 0688ms total)
T7BF4 002:929 JLINK_SetBPEx(Addr = 0x00000826, Type = 0xFFFFFFF2)  returns 0x00000006 (0000ms, 0688ms total)
T7BF4 002:929 JLINK_SetBPEx(Addr = 0x00000842, Type = 0xFFFFFFF2) -- BP[0] @ 0x00000710 converted into FlashBP  returns 0x00000007 (0000ms, 0688ms total)
T7BF4 002:929 JLINK_Go() -- Read from C cache (2 bytes @ 0x000006D0) -- Read from C cache (4 bytes @ 0x000006F8) -- Simulated -- Read from C cache (2 bytes @ 0x000006D2) -- Simulated -- CPU_ReadMem(64 bytes @ 0x00000500) -- Updating C cache (64 bytes @ 0x00000500) -- Read from C cache (2 bytes @ 0x00000514) -- Read from C cache (2 bytes @ 0x00000516) -- Simulated -- Read from C cache (2 bytes @ 0x00000518) -- Read from C cache (4 bytes @ 0x000006B4) -- Simulated
 -- Read from C cache (2 bytes @ 0x0000051A) -- Not simulated -- Start of preparing flash programming -- CPU clock frequency: 21022 kHz -- End of preparing flash programming -- CPU is running -- CPU_ReadMem(2048 bytes @ 0x00000000) -- Updating flash cache (2048 bytes @ 0x00000000) -- Programming range 0x00000000 - 0x000007FF (001 Sector, 2 KB) -- Start of restoring -- End of restoring -- CPU_WriteMem(4 bytes @ 0xE0002000) -- CPU_WriteMem(4 bytes @ 0xE0002000) -- CPU_WriteMem(4 bytes @ 0xE0002000)
 -- CPU_WriteMem(4 bytes @ 0xE0002000) -- CPU_WriteMem(4 bytes @ 0xE0002000) -- CPU_WriteMem(4 bytes @ 0xE0002000) -- CPU_ReadMem(4 bytes @ 0xE0001000) -- CPU_WriteMem(4 bytes @ 0xE0002008) -- CPU_WriteMem(4 bytes @ 0xE000200C) -- CPU_WriteMem(4 bytes @ 0xE0002010) -- CPU_WriteMem(4 bytes @ 0xE0002014) -- CPU_WriteMem(4 bytes @ 0xE0002018) -- CPU_WriteMem(4 bytes @ 0xE000201C) (0322ms, 1010ms total)
T7BF4 003:352 JLINK_IsHalted()  returns TRUE (0003ms, 1013ms total)
T7BF4 003:355 JLINK_Halt()  returns 0x00 (0000ms, 1010ms total)
T7BF4 003:355 JLINK_IsHalted()  returns TRUE (0000ms, 1010ms total)
T7BF4 003:355 JLINK_IsHalted()  returns TRUE (0000ms, 1010ms total)
T7BF4 003:355 JLINK_IsHalted()  returns TRUE (0000ms, 1010ms total)
T7BF4 003:355 JLINK_ReadReg(R15 (PC))  returns 0x00000710 (0000ms, 1010ms total)
T7BF4 003:355 JLINK_ReadReg(XPSR)  returns 0x21000000 (0000ms, 1010ms total)
T7BF4 003:355 JLINK_ClrBPEx(BPHandle = 0x00000001)  returns 0x00 (0000ms, 1010ms total)
T7BF4 003:355 JLINK_ClrBPEx(BPHandle = 0x00000002)  returns 0x00 (0000ms, 1010ms total)
T7BF4 003:355 JLINK_ClrBPEx(BPHandle = 0x00000003)  returns 0x00 (0000ms, 1010ms total)
T7BF4 003:355 JLINK_ClrBPEx(BPHandle = 0x00000004)  returns 0x00 (0000ms, 1010ms total)
T7BF4 003:355 JLINK_ClrBPEx(BPHandle = 0x00000005)  returns 0x00 (0000ms, 1010ms total)
T7BF4 003:355 JLINK_ClrBPEx(BPHandle = 0x00000006)  returns 0x00 (0000ms, 1010ms total)
T7BF4 003:355 JLINK_ClrBPEx(BPHandle = 0x00000007)  returns 0x00 (0001ms, 1011ms total)
T7BF4 003:356 JLINK_ReadMemU32(0xE000ED30, 0x0001 Items, ...) -- CPU_ReadMem(4 bytes @ 0xE000ED30) - Data: 03 00 00 00  returns 0x01 (0000ms, 1011ms total)
T7BF4 003:356 JLINK_ReadMemU32(0xE0001028, 0x0001 Items, ...) -- CPU_ReadMem(4 bytes @ 0xE0001028) - Data: 00 00 00 00  returns 0x01 (0001ms, 1012ms total)
T7BF4 003:357 JLINK_ReadMemU32(0xE0001038, 0x0001 Items, ...) -- CPU_ReadMem(4 bytes @ 0xE0001038) - Data: 00 02 00 00  returns 0x01 (0000ms, 1012ms total)
T7BF4 003:357 JLINK_ReadMemU32(0xE0001048, 0x0001 Items, ...) -- CPU_ReadMem(4 bytes @ 0xE0001048) - Data: 00 00 00 00  returns 0x01 (0001ms, 1013ms total)
T7BF4 003:358 JLINK_ReadMemU32(0xE0001058, 0x0001 Items, ...) -- CPU_ReadMem(4 bytes @ 0xE0001058) - Data: 00 00 00 00  returns 0x01 (0001ms, 1014ms total)
T7BF4 003:359 JLINK_ReadReg(R0)  returns 0x1FFF0900 (0000ms, 1014ms total)
T7BF4 003:359 JLINK_ReadReg(R1)  returns 0x1FFF0D00 (0000ms, 1014ms total)
T7BF4 003:359 JLINK_ReadReg(R2)  returns 0x1FFF0D00 (0000ms, 1014ms total)
T7BF4 003:359 JLINK_ReadReg(R3)  returns 0x1FFF0D00 (0000ms, 1014ms total)
T7BF4 003:359 JLINK_ReadReg(R4)  returns 0x00000000 (0000ms, 1014ms total)
T7BF4 003:359 JLINK_ReadReg(R5)  returns 0x1FFF08A0 (0000ms, 1014ms total)
T7BF4 003:359 JLINK_ReadReg(R6)  returns 0x00000000 (0000ms, 1014ms total)
T7BF4 003:359 JLINK_ReadReg(R7)  returns 0x00000000 (0000ms, 1014ms total)
T7BF4 003:359 JLINK_ReadReg(R8)  returns 0x00000000 (0000ms, 1014ms total)
T7BF4 003:359 JLINK_ReadReg(R9)  returns 0x00000000 (0000ms, 1014ms total)
T7BF4 003:359 JLINK_ReadReg(R10)  returns 0x00009E20 (0000ms, 1014ms total)
T7BF4 003:359 JLINK_ReadReg(R11)  returns 0x00000000 (0000ms, 1014ms total)
T7BF4 003:359 JLINK_ReadReg(R12)  returns 0x1FFF08E0 (0000ms, 1014ms total)
T7BF4 003:359 JLINK_ReadReg(R13 (SP))  returns 0x1FFF1D00 (0000ms, 1014ms total)
T7BF4 003:359 JLINK_ReadReg(R14)  returns 0x00000501 (0000ms, 1014ms total)
T7BF4 003:359 JLINK_ReadReg(R15 (PC))  returns 0x00000710 (0000ms, 1014ms total)
T7BF4 003:359 JLINK_ReadReg(XPSR)  returns 0x21000000 (0000ms, 1014ms total)
T7BF4 003:359 JLINK_ReadReg(MSP)  returns 0x1FFF1D00 (0000ms, 1014ms total)
T7BF4 003:359 JLINK_ReadReg(PSP)  returns 0x00000000 (0000ms, 1014ms total)
T7BF4 003:359 JLINK_ReadReg(CFBP)  returns 0x00000000 (0000ms, 1014ms total)
T76A4 003:365 JLINK_ReadMemU32(0xE0001004, 0x0001 Items, ...) -- CPU_ReadMem(4 bytes @ 0xE0001004) - Data: 63 27 1F 00  returns 0x01 (0001ms, 1015ms total)
T76A4 003:370 JLINK_ReadMem (0x000006D6, 0x0002 Bytes, ...) -- Read from flash cache (2 bytes @ 0x000006D6) - Data: 00 47  returns 0x00 (0000ms, 1015ms total)
T76A4 003:370 JLINK_ReadMem (0x000006D8, 0x003C Bytes, ...) -- Read from flash cache (60 bytes @ 0x000006D8) -- Merging zombie BP[0]: 0xB510 @ 0x00000710 - Data: FE E7 FE E7 FE E7 FE E7 FE E7 FE E7 FE E7 FE E7 ...  returns 0x00 (0000ms, 1015ms total)
T76A4 003:370 JLINK_ReadMem (0x00000714, 0x003C Bytes, ...) -- Read from flash cache (60 bytes @ 0x00000714) - Data: 22 F9 05 F0 2C F9 04 23 04 4A 00 21 04 48 07 F0 ...  returns 0x00 (0000ms, 1015ms total)
T7BF4 007:073 JLINK_SetBPEx(Addr = 0x000007E0, Type = 0xFFFFFFF2)  returns 0x00000008 (0000ms, 1015ms total)
T7BF4 007:073 JLINK_SetBPEx(Addr = 0x000007EE, Type = 0xFFFFFFF2)  returns 0x00000009 (0000ms, 1015ms total)
T7BF4 007:073 JLINK_SetBPEx(Addr = 0x000007FC, Type = 0xFFFFFFF2)  returns 0x0000000A (0000ms, 1015ms total)
T7BF4 007:073 JLINK_SetBPEx(Addr = 0x00000784, Type = 0xFFFFFFF2)  returns 0x0000000B (0000ms, 1015ms total)
T7BF4 007:073 JLINK_SetBPEx(Addr = 0x00000826, Type = 0xFFFFFFF2)  returns 0x0000000C (0000ms, 1015ms total)
T7BF4 007:073 JLINK_SetBPEx(Addr = 0x00000842, Type = 0xFFFFFFF2)  returns 0x0000000D (0000ms, 1015ms total)
T7BF4 007:073 JLINK_Go() -- Merging zombie BP[0]: 0xB510 @ 0x00000710 -- Merging zombie BP[0]: 0xB510 @ 0x00000710 -- CPU_WriteMem(8 bytes @ 0x1FFF1CF8) -- Simulated -- Read from flash cache (2 bytes @ 0x00000712) -- Read from flash cache (2 bytes @ 0x00000714) -- Simulated -- CPU_ReadMem(64 bytes @ 0x00000940) -- Updating C cache (64 bytes @ 0x00000940) -- Read from C cache (2 bytes @ 0x0000095A) -- CPU_WriteMem(8 bytes @ 0x1FFF1CF0) -- Simulated -- Read from C cache (2 bytes @ 0x0000095C)
 -- Read from C cache (2 bytes @ 0x0000095E) -- Simulated -- CPU_ReadMem(64 bytes @ 0x00005180) -- Updating C cache (64 bytes @ 0x00005180) -- Read from C cache (2 bytes @ 0x000051B4) -- CPU_WriteMem(4 bytes @ 0x1FFF1CEC) -- Simulated -- Read from C cache (2 bytes @ 0x000051B6) -- Read from C cache (2 bytes @ 0x000051B8) -- Simulated -- CPU_ReadMem(64 bytes @ 0x00005140) -- Updating C cache (64 bytes @ 0x00005140) -- Read from C cache (2 bytes @ 0x00005146) -- CPU_ReadMem(64 bytes @ 0x000051C0)
 -- Updating C cache (64 bytes @ 0x000051C0) -- Read from C cache (4 bytes @ 0x000051E4) -- Simulated -- Read from C cache (2 bytes @ 0x00005148) -- Simulated -- Read from C cache (2 bytes @ 0x0000514A) -- Not simulated -- Start of preparing flash programming -- CPU clock frequency: 96658 kHz -- End of preparing flash programming -- Read from flash cache (2048 bytes @ 0x00000000) -- Programming range 0x00000000 - 0x000007FF (001 Sector, 2 KB) -- Start of restoring -- End of restoring
 -- CPU_WriteMem(4 bytes @ 0xE0002000) -- CPU_WriteMem(4 bytes @ 0xE0002000) -- CPU_WriteMem(4 bytes @ 0xE0002000) -- CPU_WriteMem(4 bytes @ 0xE0002000) -- CPU_WriteMem(4 bytes @ 0xE0002000) -- CPU_WriteMem(4 bytes @ 0xE0002000) -- CPU_ReadMem(4 bytes @ 0xE0001000) -- CPU_WriteMem(4 bytes @ 0xE0002008) -- CPU_WriteMem(4 bytes @ 0xE000200C) -- CPU_WriteMem(4 bytes @ 0xE0002010) -- CPU_WriteMem(4 bytes @ 0xE0002014) -- CPU_WriteMem(4 bytes @ 0xE0002018) -- CPU_WriteMem(4 bytes @ 0xE000201C)
 (0300ms, 1315ms total)
T7BF4 007:474 JLINK_IsHalted()  returns TRUE (0003ms, 1318ms total)
T7BF4 007:477 JLINK_Halt()  returns 0x00 (0000ms, 1315ms total)
T7BF4 007:477 JLINK_IsHalted()  returns TRUE (0000ms, 1315ms total)
T7BF4 007:477 JLINK_IsHalted()  returns TRUE (0000ms, 1315ms total)
T7BF4 007:477 JLINK_IsHalted()  returns TRUE (0000ms, 1315ms total)
T7BF4 007:477 JLINK_ReadReg(R15 (PC))  returns 0x00000784 (0000ms, 1315ms total)
T7BF4 007:477 JLINK_ReadReg(XPSR)  returns 0x81000000 (0000ms, 1315ms total)
T7BF4 007:477 JLINK_ClrBPEx(BPHandle = 0x00000008)  returns 0x00 (0000ms, 1315ms total)
T7BF4 007:477 JLINK_ClrBPEx(BPHandle = 0x00000009)  returns 0x00 (0000ms, 1315ms total)
T7BF4 007:477 JLINK_ClrBPEx(BPHandle = 0x0000000A)  returns 0x00 (0000ms, 1315ms total)
T7BF4 007:477 JLINK_ClrBPEx(BPHandle = 0x0000000B)  returns 0x00 (0000ms, 1315ms total)
T7BF4 007:477 JLINK_ClrBPEx(BPHandle = 0x0000000C)  returns 0x00 (0000ms, 1315ms total)
T7BF4 007:477 JLINK_ClrBPEx(BPHandle = 0x0000000D)  returns 0x00 (0000ms, 1315ms total)
T7BF4 007:477 JLINK_ReadMemU32(0xE000ED30, 0x0001 Items, ...) -- CPU_ReadMem(4 bytes @ 0xE000ED30) - Data: 03 00 00 00  returns 0x01 (0001ms, 1316ms total)
T7BF4 007:478 JLINK_ReadMemU32(0xE0001028, 0x0001 Items, ...) -- CPU_ReadMem(4 bytes @ 0xE0001028) - Data: 00 00 00 00  returns 0x01 (0000ms, 1316ms total)
T7BF4 007:478 JLINK_ReadMemU32(0xE0001038, 0x0001 Items, ...) -- CPU_ReadMem(4 bytes @ 0xE0001038) - Data: 00 02 00 00  returns 0x01 (0001ms, 1317ms total)
T7BF4 007:479 JLINK_ReadMemU32(0xE0001048, 0x0001 Items, ...) -- CPU_ReadMem(4 bytes @ 0xE0001048) - Data: 00 00 00 00  returns 0x01 (0001ms, 1318ms total)
T7BF4 007:480 JLINK_ReadMemU32(0xE0001058, 0x0001 Items, ...) -- CPU_ReadMem(4 bytes @ 0xE0001058) - Data: 00 00 00 00  returns 0x01 (0000ms, 1318ms total)
T7BF4 007:480 JLINK_ReadReg(R0)  returns 0x00000000 (0000ms, 1318ms total)
T7BF4 007:480 JLINK_ReadReg(R1)  returns 0x01010101 (0000ms, 1318ms total)
T7BF4 007:480 JLINK_ReadReg(R2)  returns 0x02020202 (0000ms, 1318ms total)
T7BF4 007:480 JLINK_ReadReg(R3)  returns 0x03030303 (0000ms, 1318ms total)
T7BF4 007:480 JLINK_ReadReg(R4)  returns 0x00000000 (0000ms, 1318ms total)
T7BF4 007:480 JLINK_ReadReg(R5)  returns 0x05050505 (0000ms, 1318ms total)
T7BF4 007:480 JLINK_ReadReg(R6)  returns 0x06060606 (0000ms, 1318ms total)
T7BF4 007:480 JLINK_ReadReg(R7)  returns 0x07070707 (0000ms, 1318ms total)
T7BF4 007:480 JLINK_ReadReg(R8)  returns 0x08080808 (0000ms, 1318ms total)
T7BF4 007:480 JLINK_ReadReg(R9)  returns 0x09090909 (0000ms, 1318ms total)
T7BF4 007:480 JLINK_ReadReg(R10)  returns 0x10101010 (0000ms, 1318ms total)
T7BF4 007:480 JLINK_ReadReg(R11)  returns 0x11111111 (0000ms, 1318ms total)
T7BF4 007:480 JLINK_ReadReg(R12)  returns 0x12121212 (0000ms, 1318ms total)
T7BF4 007:480 JLINK_ReadReg(R13 (SP))  returns 0x1FFF0428 (0000ms, 1318ms total)
T7BF4 007:480 JLINK_ReadReg(R14)  returns 0x00008163 (0000ms, 1318ms total)
T7BF4 007:480 JLINK_ReadReg(R15 (PC))  returns 0x00000784 (0000ms, 1318ms total)
T7BF4 007:480 JLINK_ReadReg(XPSR)  returns 0x81000000 (0000ms, 1318ms total)
T7BF4 007:480 JLINK_ReadReg(MSP)  returns 0x20001CD8 (0000ms, 1318ms total)
T7BF4 007:481 JLINK_ReadReg(PSP)  returns 0x1FFF0428 (0000ms, 1319ms total)
T7BF4 007:481 JLINK_ReadReg(CFBP)  returns 0x02000000 (0000ms, 1319ms total)
T76A4 007:482 JLINK_ReadMem (0x1FFF042C, 0x0004 Bytes, ...) -- CPU_ReadMem(64 bytes @ 0x1FFF0400) -- Updating C cache (64 bytes @ 0x1FFF0400) -- Read from C cache (4 bytes @ 0x1FFF042C) - Data: 63 81 00 00  returns 0x00 (0001ms, 1320ms total)
T76A4 007:487 JLINK_ReadMem (0x1FFF0428, 0x0001 Bytes, ...) -- Read from C cache (1 bytes @ 0x1FFF0428) - Data: 03  returns 0x00 (0000ms, 1320ms total)
T76A4 007:487 JLINK_ReadMem (0x00000000, 0x0004 Bytes, ...) -- Read from flash cache (4 bytes @ 0x00000000) - Data: 00 1D FF 1F  returns 0x00 (0000ms, 1320ms total)
T76A4 007:497 JLINK_ReadMemU32(0xE0001004, 0x0001 Items, ...) -- CPU_ReadMem(4 bytes @ 0xE0001004) - Data: 1E 7C C6 00  returns 0x01 (0000ms, 1320ms total)
T76A4 007:501 JLINK_ReadMem (0x00000780, 0x003C Bytes, ...) -- Read from flash cache (60 bytes @ 0x00000780) - Data: 00 BF 00 BF 6A 46 C8 21 7C 48 00 68 06 F0 BE F8 ...  returns 0x00 (0000ms, 1320ms total)
T7BF4 016:244 JLINK_Step() -- Read from flash cache (2 bytes @ 0x00000784) -- Simulated  returns 0x00 (0000ms, 1320ms total)
T7BF4 016:244 JLINK_ReadReg(R15 (PC))  returns 0x00000786 (0000ms, 1320ms total)
T7BF4 016:244 JLINK_ReadReg(XPSR)  returns 0x81000000 (0000ms, 1320ms total)
T7BF4 016:244 JLINK_SetBPEx(Addr = 0x000007E0, Type = 0xFFFFFFF2)  returns 0x0000000E (0000ms, 1320ms total)
T7BF4 016:244 JLINK_SetBPEx(Addr = 0x000007EE, Type = 0xFFFFFFF2)  returns 0x0000000F (0000ms, 1320ms total)
T7BF4 016:244 JLINK_SetBPEx(Addr = 0x000007FC, Type = 0xFFFFFFF2)  returns 0x00000010 (0000ms, 1320ms total)
T7BF4 016:244 JLINK_SetBPEx(Addr = 0x00000784, Type = 0xFFFFFFF2)  returns 0x00000011 (0000ms, 1320ms total)
T7BF4 016:244 JLINK_SetBPEx(Addr = 0x00000826, Type = 0xFFFFFFF2)  returns 0x00000012 (0000ms, 1320ms total)
T7BF4 016:245 JLINK_SetBPEx(Addr = 0x00000842, Type = 0xFFFFFFF2)  returns 0x00000013 (0000ms, 1320ms total)
T7BF4 016:245 JLINK_Go() -- CPU_WriteMem(4 bytes @ 0xE0002000) -- CPU_WriteMem(4 bytes @ 0xE0002000) -- CPU_WriteMem(4 bytes @ 0xE0002000) -- CPU_WriteMem(4 bytes @ 0xE0002000) -- CPU_WriteMem(4 bytes @ 0xE0002000) -- CPU_WriteMem(4 bytes @ 0xE0002000) -- CPU_ReadMem(4 bytes @ 0xE0001000) -- CPU_WriteMem(4 bytes @ 0xE0001004) (0005ms, 1325ms total)
T7BF4 016:352 JLINK_IsHalted()  returns FALSE (0000ms, 1325ms total)
T7BF4 016:453 JLINK_IsHalted()  returns FALSE (0000ms, 1325ms total)
T7BF4 016:554 JLINK_IsHalted()  returns TRUE (0003ms, 1328ms total)
T7BF4 016:557 JLINK_Halt()  returns 0x00 (0000ms, 1325ms total)
T7BF4 016:557 JLINK_IsHalted()  returns TRUE (0000ms, 1325ms total)
T7BF4 016:557 JLINK_IsHalted()  returns TRUE (0000ms, 1325ms total)
T7BF4 016:557 JLINK_IsHalted()  returns TRUE (0000ms, 1325ms total)
T7BF4 016:557 JLINK_ReadReg(R15 (PC))  returns 0x00000784 (0000ms, 1325ms total)
T7BF4 016:557 JLINK_ReadReg(XPSR)  returns 0x81000000 (0000ms, 1325ms total)
T7BF4 016:557 JLINK_ClrBPEx(BPHandle = 0x0000000E)  returns 0x00 (0000ms, 1325ms total)
T7BF4 016:557 JLINK_ClrBPEx(BPHandle = 0x0000000F)  returns 0x00 (0000ms, 1325ms total)
T7BF4 016:557 JLINK_ClrBPEx(BPHandle = 0x00000010)  returns 0x00 (0000ms, 1325ms total)
T7BF4 016:557 JLINK_ClrBPEx(BPHandle = 0x00000011)  returns 0x00 (0000ms, 1325ms total)
T7BF4 016:557 JLINK_ClrBPEx(BPHandle = 0x00000012)  returns 0x00 (0000ms, 1325ms total)
T7BF4 016:557 JLINK_ClrBPEx(BPHandle = 0x00000013)  returns 0x00 (0000ms, 1325ms total)
T7BF4 016:557 JLINK_ReadMemU32(0xE000ED30, 0x0001 Items, ...) -- CPU_ReadMem(4 bytes @ 0xE000ED30) - Data: 03 00 00 00  returns 0x01 (0001ms, 1326ms total)
T7BF4 016:558 JLINK_ReadMemU32(0xE0001028, 0x0001 Items, ...) -- CPU_ReadMem(4 bytes @ 0xE0001028) - Data: 00 00 00 00  returns 0x01 (0001ms, 1327ms total)
T7BF4 016:559 JLINK_ReadMemU32(0xE0001038, 0x0001 Items, ...) -- CPU_ReadMem(4 bytes @ 0xE0001038) - Data: 00 02 00 00  returns 0x01 (0000ms, 1327ms total)
T7BF4 016:559 JLINK_ReadMemU32(0xE0001048, 0x0001 Items, ...) -- CPU_ReadMem(4 bytes @ 0xE0001048) - Data: 00 00 00 00  returns 0x01 (0001ms, 1328ms total)
T7BF4 016:560 JLINK_ReadMemU32(0xE0001058, 0x0001 Items, ...) -- CPU_ReadMem(4 bytes @ 0xE0001058) - Data: 00 00 00 00  returns 0x01 (0000ms, 1328ms total)
T7BF4 016:560 JLINK_ReadReg(R0)  returns 0x00000000 (0000ms, 1328ms total)
T7BF4 016:560 JLINK_ReadReg(R1)  returns 0x10000000 (0000ms, 1328ms total)
T7BF4 016:560 JLINK_ReadReg(R2)  returns 0x200000B0 (0000ms, 1328ms total)
T7BF4 016:560 JLINK_ReadReg(R3)  returns 0x0000012C (0000ms, 1328ms total)
T7BF4 016:560 JLINK_ReadReg(R4)  returns 0x00000000 (0000ms, 1328ms total)
T7BF4 016:560 JLINK_ReadReg(R5)  returns 0x05050505 (0000ms, 1328ms total)
T7BF4 016:560 JLINK_ReadReg(R6)  returns 0x06060606 (0000ms, 1328ms total)
T7BF4 016:560 JLINK_ReadReg(R7)  returns 0x07070707 (0000ms, 1328ms total)
T7BF4 016:560 JLINK_ReadReg(R8)  returns 0x08080808 (0000ms, 1328ms total)
T7BF4 016:560 JLINK_ReadReg(R9)  returns 0x09090909 (0000ms, 1328ms total)
T7BF4 016:560 JLINK_ReadReg(R10)  returns 0x10101010 (0000ms, 1328ms total)
T7BF4 016:560 JLINK_ReadReg(R11)  returns 0x11111111 (0000ms, 1328ms total)
T7BF4 016:560 JLINK_ReadReg(R12)  returns 0x12121212 (0000ms, 1328ms total)
T7BF4 016:560 JLINK_ReadReg(R13 (SP))  returns 0x1FFF0428 (0001ms, 1329ms total)
T7BF4 016:561 JLINK_ReadReg(R14)  returns 0x00005391 (0000ms, 1329ms total)
T7BF4 016:561 JLINK_ReadReg(R15 (PC))  returns 0x00000784 (0000ms, 1329ms total)
T7BF4 016:561 JLINK_ReadReg(XPSR)  returns 0x81000000 (0000ms, 1329ms total)
T7BF4 016:561 JLINK_ReadReg(MSP)  returns 0x20001CD8 (0000ms, 1329ms total)
T7BF4 016:561 JLINK_ReadReg(PSP)  returns 0x1FFF0428 (0000ms, 1329ms total)
T7BF4 016:561 JLINK_ReadReg(CFBP)  returns 0x02000000 (0000ms, 1329ms total)
T76A4 016:561 JLINK_ReadMem (0x1FFF042C, 0x0004 Bytes, ...) -- CPU_ReadMem(64 bytes @ 0x1FFF0400) -- Updating C cache (64 bytes @ 0x1FFF0400) -- Read from C cache (4 bytes @ 0x1FFF042C) - Data: 63 81 00 00  returns 0x00 (0001ms, 1330ms total)
T76A4 016:563 JLINK_ReadMem (0x1FFF0434, 0x0004 Bytes, ...) -- Read from C cache (4 bytes @ 0x1FFF0434) - Data: 00 00 00 00  returns 0x00 (0000ms, 1330ms total)
T76A4 016:569 JLINK_ReadMem (0x1FFF0428, 0x0001 Bytes, ...) -- Read from C cache (1 bytes @ 0x1FFF0428) - Data: 04  returns 0x00 (0000ms, 1330ms total)
T76A4 016:569 JLINK_ReadMem (0x00000000, 0x0004 Bytes, ...) -- Read from flash cache (4 bytes @ 0x00000000) - Data: 00 1D FF 1F  returns 0x00 (0000ms, 1330ms total)
T76A4 016:573 JLINK_ReadMemU32(0xE0001004, 0x0001 Items, ...) -- CPU_ReadMem(4 bytes @ 0xE0001004) - Data: 4D 63 79 02  returns 0x01 (0001ms, 1331ms total)
T7BF4 016:764 JLINK_Step() -- Read from flash cache (2 bytes @ 0x00000784) -- Simulated  returns 0x00 (0000ms, 1331ms total)
T7BF4 016:764 JLINK_ReadReg(R15 (PC))  returns 0x00000786 (0000ms, 1331ms total)
T7BF4 016:764 JLINK_ReadReg(XPSR)  returns 0x81000000 (0000ms, 1331ms total)
T7BF4 016:764 JLINK_SetBPEx(Addr = 0x000007E0, Type = 0xFFFFFFF2)  returns 0x00000014 (0000ms, 1331ms total)
T7BF4 016:764 JLINK_SetBPEx(Addr = 0x000007EE, Type = 0xFFFFFFF2)  returns 0x00000015 (0000ms, 1331ms total)
T7BF4 016:764 JLINK_SetBPEx(Addr = 0x000007FC, Type = 0xFFFFFFF2)  returns 0x00000016 (0000ms, 1331ms total)
T7BF4 016:764 JLINK_SetBPEx(Addr = 0x00000784, Type = 0xFFFFFFF2)  returns 0x00000017 (0000ms, 1331ms total)
T7BF4 016:764 JLINK_SetBPEx(Addr = 0x00000826, Type = 0xFFFFFFF2)  returns 0x00000018 (0000ms, 1331ms total)
T7BF4 016:764 JLINK_SetBPEx(Addr = 0x00000842, Type = 0xFFFFFFF2)  returns 0x00000019 (0000ms, 1331ms total)
T7BF4 016:764 JLINK_Go() -- CPU_WriteMem(4 bytes @ 0xE0002000) -- CPU_WriteMem(4 bytes @ 0xE0002000) -- CPU_WriteMem(4 bytes @ 0xE0002000) -- CPU_WriteMem(4 bytes @ 0xE0002000) -- CPU_WriteMem(4 bytes @ 0xE0002000) -- CPU_WriteMem(4 bytes @ 0xE0002000) -- CPU_ReadMem(4 bytes @ 0xE0001000) -- CPU_WriteMem(4 bytes @ 0xE0001004) (0005ms, 1336ms total)
T7BF4 016:871 JLINK_IsHalted()  returns FALSE (0000ms, 1336ms total)
T7BF4 016:972 JLINK_IsHalted()  returns FALSE (0000ms, 1336ms total)
T7BF4 017:073 JLINK_IsHalted()  returns TRUE (0003ms, 1339ms total)
T7BF4 017:076 JLINK_Halt()  returns 0x00 (0000ms, 1336ms total)
T7BF4 017:076 JLINK_IsHalted()  returns TRUE (0000ms, 1336ms total)
T7BF4 017:076 JLINK_IsHalted()  returns TRUE (0000ms, 1336ms total)
T7BF4 017:076 JLINK_IsHalted()  returns TRUE (0000ms, 1336ms total)
T7BF4 017:076 JLINK_ReadReg(R15 (PC))  returns 0x00000784 (0000ms, 1336ms total)
T7BF4 017:076 JLINK_ReadReg(XPSR)  returns 0x81000000 (0000ms, 1336ms total)
T7BF4 017:076 JLINK_ClrBPEx(BPHandle = 0x00000014)  returns 0x00 (0000ms, 1336ms total)
T7BF4 017:076 JLINK_ClrBPEx(BPHandle = 0x00000015)  returns 0x00 (0000ms, 1336ms total)
T7BF4 017:076 JLINK_ClrBPEx(BPHandle = 0x00000016)  returns 0x00 (0001ms, 1337ms total)
T7BF4 017:077 JLINK_ClrBPEx(BPHandle = 0x00000017)  returns 0x00 (0000ms, 1337ms total)
T7BF4 017:077 JLINK_ClrBPEx(BPHandle = 0x00000018)  returns 0x00 (0000ms, 1337ms total)
T7BF4 017:077 JLINK_ClrBPEx(BPHandle = 0x00000019)  returns 0x00 (0000ms, 1337ms total)
T7BF4 017:077 JLINK_ReadMemU32(0xE000ED30, 0x0001 Items, ...) -- CPU_ReadMem(4 bytes @ 0xE000ED30) - Data: 03 00 00 00  returns 0x01 (0000ms, 1337ms total)
T7BF4 017:077 JLINK_ReadMemU32(0xE0001028, 0x0001 Items, ...) -- CPU_ReadMem(4 bytes @ 0xE0001028) - Data: 00 00 00 00  returns 0x01 (0001ms, 1338ms total)
T7BF4 017:078 JLINK_ReadMemU32(0xE0001038, 0x0001 Items, ...) -- CPU_ReadMem(4 bytes @ 0xE0001038) - Data: 00 02 00 00  returns 0x01 (0000ms, 1338ms total)
T7BF4 017:078 JLINK_ReadMemU32(0xE0001048, 0x0001 Items, ...) -- CPU_ReadMem(4 bytes @ 0xE0001048) - Data: 00 00 00 00  returns 0x01 (0001ms, 1339ms total)
T7BF4 017:079 JLINK_ReadMemU32(0xE0001058, 0x0001 Items, ...) -- CPU_ReadMem(4 bytes @ 0xE0001058) - Data: 00 00 00 00  returns 0x01 (0001ms, 1340ms total)
T7BF4 017:080 JLINK_ReadReg(R0)  returns 0x00000000 (0000ms, 1340ms total)
T7BF4 017:080 JLINK_ReadReg(R1)  returns 0x10000000 (0000ms, 1340ms total)
T7BF4 017:080 JLINK_ReadReg(R2)  returns 0x200000B0 (0000ms, 1340ms total)
T7BF4 017:080 JLINK_ReadReg(R3)  returns 0x0000012C (0000ms, 1340ms total)
T7BF4 017:080 JLINK_ReadReg(R4)  returns 0x00000000 (0000ms, 1340ms total)
T7BF4 017:080 JLINK_ReadReg(R5)  returns 0x05050505 (0000ms, 1340ms total)
T7BF4 017:080 JLINK_ReadReg(R6)  returns 0x06060606 (0000ms, 1340ms total)
T7BF4 017:080 JLINK_ReadReg(R7)  returns 0x07070707 (0000ms, 1340ms total)
T7BF4 017:080 JLINK_ReadReg(R8)  returns 0x08080808 (0000ms, 1340ms total)
T7BF4 017:080 JLINK_ReadReg(R9)  returns 0x09090909 (0000ms, 1340ms total)
T7BF4 017:080 JLINK_ReadReg(R10)  returns 0x10101010 (0000ms, 1340ms total)
T7BF4 017:080 JLINK_ReadReg(R11)  returns 0x11111111 (0000ms, 1340ms total)
T7BF4 017:080 JLINK_ReadReg(R12)  returns 0x12121212 (0000ms, 1340ms total)
T7BF4 017:080 JLINK_ReadReg(R13 (SP))  returns 0x1FFF0428 (0000ms, 1340ms total)
T7BF4 017:080 JLINK_ReadReg(R14)  returns 0x00005391 (0000ms, 1340ms total)
T7BF4 017:080 JLINK_ReadReg(R15 (PC))  returns 0x00000784 (0000ms, 1340ms total)
T7BF4 017:080 JLINK_ReadReg(XPSR)  returns 0x81000000 (0000ms, 1340ms total)
T7BF4 017:080 JLINK_ReadReg(MSP)  returns 0x20001CD8 (0000ms, 1340ms total)
T7BF4 017:080 JLINK_ReadReg(PSP)  returns 0x1FFF0428 (0000ms, 1340ms total)
T7BF4 017:080 JLINK_ReadReg(CFBP)  returns 0x02000000 (0000ms, 1340ms total)
T76A4 017:080 JLINK_ReadMem (0x1FFF042C, 0x0004 Bytes, ...) -- CPU_ReadMem(64 bytes @ 0x1FFF0400) -- Updating C cache (64 bytes @ 0x1FFF0400) -- Read from C cache (4 bytes @ 0x1FFF042C) - Data: 63 81 00 00  returns 0x00 (0002ms, 1342ms total)
T76A4 017:082 JLINK_ReadMem (0x1FFF0434, 0x0004 Bytes, ...) -- Read from C cache (4 bytes @ 0x1FFF0434) - Data: 00 00 00 00  returns 0x00 (0000ms, 1342ms total)
T76A4 017:082 JLINK_ReadMem (0x1FFF0428, 0x0001 Bytes, ...) -- Read from C cache (1 bytes @ 0x1FFF0428) - Data: 04  returns 0x00 (0000ms, 1342ms total)
T76A4 017:082 JLINK_ReadMem (0x00000000, 0x0004 Bytes, ...) -- Read from flash cache (4 bytes @ 0x00000000) - Data: 00 1D FF 1F  returns 0x00 (0000ms, 1342ms total)
T76A4 017:082 JLINK_ReadMemU32(0xE0001004, 0x0001 Items, ...) -- CPU_ReadMem(4 bytes @ 0xE0001004) - Data: AE 43 2C 04  returns 0x01 (0000ms, 1342ms total)
T7BF4 017:372 JLINK_Step() -- Read from flash cache (2 bytes @ 0x00000784) -- Simulated  returns 0x00 (0000ms, 1342ms total)
T7BF4 017:372 JLINK_ReadReg(R15 (PC))  returns 0x00000786 (0000ms, 1342ms total)
T7BF4 017:372 JLINK_ReadReg(XPSR)  returns 0x81000000 (0000ms, 1342ms total)
T7BF4 017:372 JLINK_SetBPEx(Addr = 0x000007E0, Type = 0xFFFFFFF2)  returns 0x0000001A (0000ms, 1342ms total)
T7BF4 017:372 JLINK_SetBPEx(Addr = 0x000007EE, Type = 0xFFFFFFF2)  returns 0x0000001B (0000ms, 1342ms total)
T7BF4 017:372 JLINK_SetBPEx(Addr = 0x000007FC, Type = 0xFFFFFFF2)  returns 0x0000001C (0000ms, 1342ms total)
T7BF4 017:372 JLINK_SetBPEx(Addr = 0x00000784, Type = 0xFFFFFFF2)  returns 0x0000001D (0000ms, 1342ms total)
T7BF4 017:372 JLINK_SetBPEx(Addr = 0x00000826, Type = 0xFFFFFFF2)  returns 0x0000001E (0000ms, 1342ms total)
T7BF4 017:372 JLINK_SetBPEx(Addr = 0x00000842, Type = 0xFFFFFFF2)  returns 0x0000001F (0000ms, 1342ms total)
T7BF4 017:372 JLINK_Go() -- CPU_WriteMem(4 bytes @ 0xE0002000) -- CPU_WriteMem(4 bytes @ 0xE0002000) -- CPU_WriteMem(4 bytes @ 0xE0002000) -- CPU_WriteMem(4 bytes @ 0xE0002000) -- CPU_WriteMem(4 bytes @ 0xE0002000) -- CPU_WriteMem(4 bytes @ 0xE0002000) -- CPU_ReadMem(4 bytes @ 0xE0001000) -- CPU_WriteMem(4 bytes @ 0xE0001004) (0005ms, 1347ms total)
T7BF4 017:479 JLINK_IsHalted()  returns FALSE (0000ms, 1348ms total)
T7BF4 017:580 JLINK_IsHalted()  returns FALSE (0000ms, 1348ms total)
T7BF4 017:681 JLINK_IsHalted()  returns TRUE (0003ms, 1351ms total)
T7BF4 017:684 JLINK_Halt()  returns 0x00 (0000ms, 1348ms total)
T7BF4 017:684 JLINK_IsHalted()  returns TRUE (0000ms, 1348ms total)
T7BF4 017:684 JLINK_IsHalted()  returns TRUE (0000ms, 1348ms total)
T7BF4 017:684 JLINK_IsHalted()  returns TRUE (0000ms, 1348ms total)
T7BF4 017:684 JLINK_ReadReg(R15 (PC))  returns 0x00000784 (0000ms, 1348ms total)
T7BF4 017:684 JLINK_ReadReg(XPSR)  returns 0x81000000 (0000ms, 1348ms total)
T7BF4 017:684 JLINK_ClrBPEx(BPHandle = 0x0000001A)  returns 0x00 (0000ms, 1348ms total)
T7BF4 017:684 JLINK_ClrBPEx(BPHandle = 0x0000001B)  returns 0x00 (0000ms, 1348ms total)
T7BF4 017:684 JLINK_ClrBPEx(BPHandle = 0x0000001C)  returns 0x00 (0000ms, 1348ms total)
T7BF4 017:684 JLINK_ClrBPEx(BPHandle = 0x0000001D)  returns 0x00 (0000ms, 1348ms total)
T7BF4 017:684 JLINK_ClrBPEx(BPHandle = 0x0000001E)  returns 0x00 (0000ms, 1348ms total)
T7BF4 017:684 JLINK_ClrBPEx(BPHandle = 0x0000001F)  returns 0x00 (0000ms, 1348ms total)
T7BF4 017:684 JLINK_ReadMemU32(0xE000ED30, 0x0001 Items, ...) -- CPU_ReadMem(4 bytes @ 0xE000ED30) - Data: 03 00 00 00  returns 0x01 (0001ms, 1349ms total)
T7BF4 017:685 JLINK_ReadMemU32(0xE0001028, 0x0001 Items, ...) -- CPU_ReadMem(4 bytes @ 0xE0001028) - Data: 00 00 00 00  returns 0x01 (0000ms, 1349ms total)
T7BF4 017:685 JLINK_ReadMemU32(0xE0001038, 0x0001 Items, ...) -- CPU_ReadMem(4 bytes @ 0xE0001038) - Data: 00 02 00 00  returns 0x01 (0001ms, 1350ms total)
T7BF4 017:686 JLINK_ReadMemU32(0xE0001048, 0x0001 Items, ...) -- CPU_ReadMem(4 bytes @ 0xE0001048) - Data: 00 00 00 00  returns 0x01 (0001ms, 1351ms total)
T7BF4 017:687 JLINK_ReadMemU32(0xE0001058, 0x0001 Items, ...) -- CPU_ReadMem(4 bytes @ 0xE0001058) - Data: 00 00 00 00  returns 0x01 (0000ms, 1351ms total)
T7BF4 017:687 JLINK_ReadReg(R0)  returns 0x00000000 (0000ms, 1351ms total)
T7BF4 017:687 JLINK_ReadReg(R1)  returns 0x10000000 (0000ms, 1351ms total)
T7BF4 017:687 JLINK_ReadReg(R2)  returns 0x200000B0 (0000ms, 1351ms total)
T7BF4 017:687 JLINK_ReadReg(R3)  returns 0x0000012C (0000ms, 1351ms total)
T7BF4 017:687 JLINK_ReadReg(R4)  returns 0x00000000 (0000ms, 1351ms total)
T7BF4 017:687 JLINK_ReadReg(R5)  returns 0x05050505 (0000ms, 1351ms total)
T7BF4 017:687 JLINK_ReadReg(R6)  returns 0x06060606 (0000ms, 1351ms total)
T7BF4 017:687 JLINK_ReadReg(R7)  returns 0x07070707 (0000ms, 1351ms total)
T7BF4 017:687 JLINK_ReadReg(R8)  returns 0x08080808 (0000ms, 1351ms total)
T7BF4 017:687 JLINK_ReadReg(R9)  returns 0x09090909 (0000ms, 1351ms total)
T7BF4 017:687 JLINK_ReadReg(R10)  returns 0x10101010 (0000ms, 1351ms total)
T7BF4 017:687 JLINK_ReadReg(R11)  returns 0x11111111 (0000ms, 1351ms total)
T7BF4 017:687 JLINK_ReadReg(R12)  returns 0x12121212 (0000ms, 1351ms total)
T7BF4 017:687 JLINK_ReadReg(R13 (SP))  returns 0x1FFF0428 (0000ms, 1351ms total)
T7BF4 017:687 JLINK_ReadReg(R14)  returns 0x00005391 (0000ms, 1351ms total)
T7BF4 017:687 JLINK_ReadReg(R15 (PC))  returns 0x00000784 (0001ms, 1352ms total)
T7BF4 017:688 JLINK_ReadReg(XPSR)  returns 0x81000000 (0000ms, 1352ms total)
T7BF4 017:688 JLINK_ReadReg(MSP)  returns 0x20001CD8 (0000ms, 1352ms total)
T7BF4 017:688 JLINK_ReadReg(PSP)  returns 0x1FFF0428 (0000ms, 1352ms total)
T7BF4 017:688 JLINK_ReadReg(CFBP)  returns 0x02000000 (0000ms, 1352ms total)
T76A4 017:688 JLINK_ReadMem (0x1FFF042C, 0x0004 Bytes, ...) -- CPU_ReadMem(64 bytes @ 0x1FFF0400) -- Updating C cache (64 bytes @ 0x1FFF0400) -- Read from C cache (4 bytes @ 0x1FFF042C) - Data: 63 81 00 00  returns 0x00 (0001ms, 1353ms total)
T76A4 017:689 JLINK_ReadMem (0x1FFF0434, 0x0004 Bytes, ...) -- Read from C cache (4 bytes @ 0x1FFF0434) - Data: 00 00 00 00  returns 0x00 (0000ms, 1353ms total)
T76A4 017:689 JLINK_ReadMem (0x1FFF0428, 0x0001 Bytes, ...) -- Read from C cache (1 bytes @ 0x1FFF0428) - Data: 04  returns 0x00 (0000ms, 1353ms total)
T76A4 017:689 JLINK_ReadMem (0x00000000, 0x0004 Bytes, ...) -- Read from flash cache (4 bytes @ 0x00000000) - Data: 00 1D FF 1F  returns 0x00 (0000ms, 1353ms total)
T76A4 017:689 JLINK_ReadMemU32(0xE0001004, 0x0001 Items, ...) -- CPU_ReadMem(4 bytes @ 0xE0001004) - Data: C4 23 DF 05  returns 0x01 (0001ms, 1354ms total)
T7BF4 017:989 JLINK_Step() -- Read from flash cache (2 bytes @ 0x00000784) -- Simulated  returns 0x00 (0000ms, 1354ms total)
T7BF4 017:989 JLINK_ReadReg(R15 (PC))  returns 0x00000786 (0000ms, 1354ms total)
T7BF4 017:989 JLINK_ReadReg(XPSR)  returns 0x81000000 (0000ms, 1354ms total)
T7BF4 017:989 JLINK_SetBPEx(Addr = 0x000007E0, Type = 0xFFFFFFF2)  returns 0x00000020 (0001ms, 1355ms total)
T7BF4 017:990 JLINK_SetBPEx(Addr = 0x000007EE, Type = 0xFFFFFFF2)  returns 0x00000021 (0000ms, 1355ms total)
T7BF4 017:990 JLINK_SetBPEx(Addr = 0x000007FC, Type = 0xFFFFFFF2)  returns 0x00000022 (0000ms, 1355ms total)
T7BF4 017:990 JLINK_SetBPEx(Addr = 0x00000784, Type = 0xFFFFFFF2)  returns 0x00000023 (0000ms, 1355ms total)
T7BF4 017:990 JLINK_SetBPEx(Addr = 0x00000826, Type = 0xFFFFFFF2)  returns 0x00000024 (0000ms, 1355ms total)
T7BF4 017:990 JLINK_SetBPEx(Addr = 0x00000842, Type = 0xFFFFFFF2)  returns 0x00000025 (0000ms, 1355ms total)
T7BF4 017:990 JLINK_Go() -- CPU_WriteMem(4 bytes @ 0xE0002000) -- CPU_WriteMem(4 bytes @ 0xE0002000) -- CPU_WriteMem(4 bytes @ 0xE0002000) -- CPU_WriteMem(4 bytes @ 0xE0002000) -- CPU_WriteMem(4 bytes @ 0xE0002000) -- CPU_WriteMem(4 bytes @ 0xE0002000) -- CPU_ReadMem(4 bytes @ 0xE0001000) -- CPU_WriteMem(4 bytes @ 0xE0001004) (0005ms, 1360ms total)
T7BF4 018:096 JLINK_IsHalted()  returns FALSE (0000ms, 1360ms total)
T7BF4 018:197 JLINK_IsHalted()  returns FALSE (0000ms, 1360ms total)
T7BF4 018:298 JLINK_IsHalted()  returns TRUE (0003ms, 1363ms total)
T7BF4 018:301 JLINK_Halt()  returns 0x00 (0000ms, 1360ms total)
T7BF4 018:301 JLINK_IsHalted()  returns TRUE (0000ms, 1360ms total)
T7BF4 018:301 JLINK_IsHalted()  returns TRUE (0000ms, 1360ms total)
T7BF4 018:301 JLINK_IsHalted()  returns TRUE (0000ms, 1360ms total)
T7BF4 018:301 JLINK_ReadReg(R15 (PC))  returns 0x00000784 (0000ms, 1360ms total)
T7BF4 018:301 JLINK_ReadReg(XPSR)  returns 0x81000000 (0000ms, 1360ms total)
T7BF4 018:301 JLINK_ClrBPEx(BPHandle = 0x00000020)  returns 0x00 (0000ms, 1360ms total)
T7BF4 018:301 JLINK_ClrBPEx(BPHandle = 0x00000021)  returns 0x00 (0000ms, 1360ms total)
T7BF4 018:301 JLINK_ClrBPEx(BPHandle = 0x00000022)  returns 0x00 (0000ms, 1360ms total)
T7BF4 018:301 JLINK_ClrBPEx(BPHandle = 0x00000023)  returns 0x00 (0000ms, 1360ms total)
T7BF4 018:301 JLINK_ClrBPEx(BPHandle = 0x00000024)  returns 0x00 (0000ms, 1360ms total)
T7BF4 018:301 JLINK_ClrBPEx(BPHandle = 0x00000025)  returns 0x00 (0000ms, 1360ms total)
T7BF4 018:301 JLINK_ReadMemU32(0xE000ED30, 0x0001 Items, ...) -- CPU_ReadMem(4 bytes @ 0xE000ED30) - Data: 03 00 00 00  returns 0x01 (0001ms, 1361ms total)
T7BF4 018:302 JLINK_ReadMemU32(0xE0001028, 0x0001 Items, ...) -- CPU_ReadMem(4 bytes @ 0xE0001028) - Data: 00 00 00 00  returns 0x01 (0000ms, 1361ms total)
T7BF4 018:302 JLINK_ReadMemU32(0xE0001038, 0x0001 Items, ...) -- CPU_ReadMem(4 bytes @ 0xE0001038) - Data: 00 02 00 00  returns 0x01 (0001ms, 1362ms total)
T7BF4 018:303 JLINK_ReadMemU32(0xE0001048, 0x0001 Items, ...) -- CPU_ReadMem(4 bytes @ 0xE0001048) - Data: 00 00 00 00  returns 0x01 (0000ms, 1362ms total)
T7BF4 018:303 JLINK_ReadMemU32(0xE0001058, 0x0001 Items, ...) -- CPU_ReadMem(4 bytes @ 0xE0001058) - Data: 00 00 00 00  returns 0x01 (0001ms, 1363ms total)
T7BF4 018:304 JLINK_ReadReg(R0)  returns 0x00000000 (0000ms, 1363ms total)
T7BF4 018:304 JLINK_ReadReg(R1)  returns 0x10000000 (0000ms, 1363ms total)
T7BF4 018:304 JLINK_ReadReg(R2)  returns 0x200000B0 (0000ms, 1363ms total)
T7BF4 018:304 JLINK_ReadReg(R3)  returns 0x0000012C (0000ms, 1363ms total)
T7BF4 018:304 JLINK_ReadReg(R4)  returns 0x00000000 (0000ms, 1363ms total)
T7BF4 018:304 JLINK_ReadReg(R5)  returns 0x05050505 (0000ms, 1363ms total)
T7BF4 018:304 JLINK_ReadReg(R6)  returns 0x06060606 (0000ms, 1363ms total)
T7BF4 018:304 JLINK_ReadReg(R7)  returns 0x07070707 (0000ms, 1363ms total)
T7BF4 018:304 JLINK_ReadReg(R8)  returns 0x08080808 (0000ms, 1363ms total)
T7BF4 018:304 JLINK_ReadReg(R9)  returns 0x09090909 (0000ms, 1363ms total)
T7BF4 018:304 JLINK_ReadReg(R10)  returns 0x10101010 (0000ms, 1363ms total)
T7BF4 018:304 JLINK_ReadReg(R11)  returns 0x11111111 (0000ms, 1363ms total)
T7BF4 018:304 JLINK_ReadReg(R12)  returns 0x12121212 (0000ms, 1363ms total)
T7BF4 018:304 JLINK_ReadReg(R13 (SP))  returns 0x1FFF0428 (0000ms, 1363ms total)
T7BF4 018:304 JLINK_ReadReg(R14)  returns 0x00005391 (0000ms, 1363ms total)
T7BF4 018:304 JLINK_ReadReg(R15 (PC))  returns 0x00000784 (0000ms, 1363ms total)
T7BF4 018:304 JLINK_ReadReg(XPSR)  returns 0x81000000 (0000ms, 1363ms total)
T7BF4 018:304 JLINK_ReadReg(MSP)  returns 0x20001CD8 (0000ms, 1363ms total)
T7BF4 018:304 JLINK_ReadReg(PSP)  returns 0x1FFF0428 (0000ms, 1363ms total)
T7BF4 018:304 JLINK_ReadReg(CFBP)  returns 0x02000000 (0000ms, 1363ms total)
T76A4 018:305 JLINK_ReadMem (0x1FFF042C, 0x0004 Bytes, ...) -- CPU_ReadMem(64 bytes @ 0x1FFF0400) -- Updating C cache (64 bytes @ 0x1FFF0400) -- Read from C cache (4 bytes @ 0x1FFF042C) - Data: 63 81 00 00  returns 0x00 (0000ms, 1363ms total)
T76A4 018:305 JLINK_ReadMem (0x1FFF0434, 0x0004 Bytes, ...) -- Read from C cache (4 bytes @ 0x1FFF0434) - Data: 00 00 00 00  returns 0x00 (0000ms, 1363ms total)
T76A4 018:305 JLINK_ReadMem (0x1FFF0428, 0x0001 Bytes, ...) -- Read from C cache (1 bytes @ 0x1FFF0428) - Data: 04  returns 0x00 (0000ms, 1363ms total)
T76A4 018:305 JLINK_ReadMem (0x00000000, 0x0004 Bytes, ...) -- Read from flash cache (4 bytes @ 0x00000000) - Data: 00 1D FF 1F  returns 0x00 (0000ms, 1363ms total)
T76A4 018:305 JLINK_ReadMemU32(0xE0001004, 0x0001 Items, ...) -- CPU_ReadMem(4 bytes @ 0xE0001004) - Data: 31 04 92 07  returns 0x01 (0002ms, 1365ms total)
T7BF4 020:668 JLINK_Step() -- Read from flash cache (2 bytes @ 0x00000784) -- Simulated  returns 0x00 (0001ms, 1366ms total)
T7BF4 020:669 JLINK_ReadReg(R15 (PC))  returns 0x00000786 (0000ms, 1366ms total)
T7BF4 020:669 JLINK_ReadReg(XPSR)  returns 0x81000000 (0000ms, 1366ms total)
T7BF4 020:669 JLINK_SetBPEx(Addr = 0x000007E0, Type = 0xFFFFFFF2)  returns 0x00000026 (0000ms, 1366ms total)
T7BF4 020:669 JLINK_SetBPEx(Addr = 0x000007EE, Type = 0xFFFFFFF2)  returns 0x00000027 (0000ms, 1366ms total)
T7BF4 020:669 JLINK_SetBPEx(Addr = 0x000007FC, Type = 0xFFFFFFF2)  returns 0x00000028 (0000ms, 1366ms total)
T7BF4 020:669 JLINK_SetBPEx(Addr = 0x00000784, Type = 0xFFFFFFF2)  returns 0x00000029 (0000ms, 1366ms total)
T7BF4 020:669 JLINK_SetBPEx(Addr = 0x00000826, Type = 0xFFFFFFF2)  returns 0x0000002A (0000ms, 1366ms total)
T7BF4 020:669 JLINK_SetBPEx(Addr = 0x00000842, Type = 0xFFFFFFF2)  returns 0x0000002B (0000ms, 1366ms total)
